LTspice 24.0.9 for Windows
Circuit: * C:\ONEDRIVE\OneDrive - Università di Napoli Federico II\FILE UNI\LTspice_circuiti\DCLoad2\LDO\LDO.asc
Start Time: Mon Aug 19 16:53:16 2024
v3: both pins shorted together -- ignoring.
solver = Normal
Maximum thread count: 12



Direct Newton iteration failed to find .op point.  (Use ".option noopiter" to skip.)
Starting Gmin stepping
Gmin = 10
Gmin = 1.07374
Gmin = 0.115292
Gmin = 0.0123794
Gmin = 0.00132923
Gmin = 0.000142725
Gmin = 1.5325e-05
Gmin = 1.6455e-06
Gmin = 1.76685e-07
Gmin = 1.89714e-08
Gmin = 2.03704e-09
Gmin = 2.18725e-10
Gmin = 2.34854e-11
Gmin = 2.52173e-12
Gmin = 2.70769e-13
Gmin = 0
Gmin stepping succeeded in finding the operating point.

Semiconductor Device Operating Points:
                        --- Diodes ---
Name:    d:u2:1      d:u2:2      d:u2:3        d1        d:u1:1
Model:    u2:dz       u2:dz       u2:dz      1n4002     u1:dmod1
Id:     -5.17e-12   -2.65e-12   -2.65e-12   -1.43e-08   -7.57e-10
Vd:     -5.16e+00   -2.64e+00   -2.64e+00   -1.30e+00   -7.57e+02
Req:     1.00e+12    1.00e+12    1.00e+12    3.92e+10    1.00e+12
CAP:     0.00e+00    0.00e+00    0.00e+00    3.42e-11    0.00e+00

Name:    d:u1:2      d:u1:3
Model:  u1:dmod1    u1:dmod2
Id:     -1.20e-11   -7.67e-10
Vd:     -1.20e+01   -7.67e+02
Req:     1.00e+12    1.00e+12
CAP:     0.00e+00    0.00e+00

                        --- Bipolar Transistors ---
Name:     q:u2:2      q:u2:4      q:u2:6      q:u2:8      q:u2:9
Model:    u2:qpl      u2:qpl      u2:qpl      u2:qpl      u2:qpl
Ib:      -1.47e-06   -1.43e-06   -2.41e-06   -2.63e-06    1.23e-12
Ic:      -5.88e-05   -6.14e-05   -9.79e-05   -1.11e-04   -1.37e-12
Vbe:     -7.61e-01   -7.60e-01   -7.56e-01   -7.58e-01   -1.37e-01
Vbc:      0.00e+00    3.74e+00    7.45e-01    3.00e+00    1.36e+00
Vce:     -7.61e-01   -4.50e+00   -1.50e+00   -3.76e+00   -1.50e+00
BetaDC:   4.00e+01    4.30e+01    4.06e+01    4.24e+01   -1.11e+00
Gm:       2.27e-03    2.37e-03    3.78e-03    4.30e-03    1.57e-13
Rpi:      1.76e+04    1.81e+04    1.07e+04    9.85e+03    9.96e+11
Rx:       2.00e+02    2.00e+02    1.00e+02    1.00e+02    1.00e+02
Ro:       8.50e+05    8.76e+05    5.18e+05    4.76e+05    1.27e+16
Cbe:      1.62e-12    1.68e-12    2.77e-12    3.09e-12    3.21e-13
Cbc:      1.00e-13    5.54e-14    1.59e-13    1.18e-13    1.42e-13
Cjs:      0.00e+00    0.00e+00    0.00e+00    0.00e+00    0.00e+00
BetaAC:   4.00e+01    4.30e+01    4.06e+01    4.24e+01    1.56e-01
Cbx:      0.00e+00    0.00e+00    0.00e+00    0.00e+00    0.00e+00
Ft:       2.11e+08    2.18e+08    2.05e+08    2.14e+08    3.41e-01

Name:     q:u2:10     q:u2:12     q:u2:14     q:u2:15     q:u2:16
Model:    u2:qpl      u2:qpl      u2:qpl      u2:qpl      u2:qpl
Ib:      -3.65e-06   -9.46e-06   -3.15e-07   -2.84e-07   -5.76e-07
Ic:      -1.55e-04   -3.84e-04   -1.34e-05   -1.15e-05   -2.30e-05
Vbe:     -7.66e-01   -7.92e-01   -7.03e-01   -7.00e-01   -7.18e-01
Vbc:      3.00e+00    7.11e-01    3.03e+00    7.74e-01    1.08e-02
Vce:     -3.77e+00   -1.50e+00   -3.73e+00   -1.47e+00   -7.29e-01
BetaDC:   4.24e+01    4.06e+01    4.24e+01    4.06e+01    4.00e+01
Gm:       5.99e-03    1.48e-02    5.17e-04    4.46e-04    8.90e-04
Rpi:      7.08e+03    2.73e+03    8.20e+04    9.10e+04    4.49e+04
Rx:       1.00e+02    1.00e+02    1.00e+02    1.00e+02    1.00e+02
Ro:       3.42e+05    1.32e+05    3.96e+06    4.40e+06    2.17e+06
Cbe:      4.10e-12    9.42e-12    7.96e-13    7.53e-13    1.03e-12
Cbc:      1.18e-13    1.60e-13    1.17e-13    1.58e-13    1.99e-13
Cjs:      0.00e+00    0.00e+00    0.00e+00    0.00e+00    0.00e+00
BetaAC:   4.24e+01    4.05e+01    4.24e+01    4.06e+01    4.00e+01
Cbx:      0.00e+00    0.00e+00    0.00e+00    0.00e+00    0.00e+00
Ft:       2.26e+08    2.46e+08    9.01e+07    7.79e+07    1.16e+08

Name:     q:u2:18     q:u2:20    q:u2:22a    q:u2:22b     q:u2:3
Model:    u2:qpl      u2:qpl      u2:qpl      u2:qpl      u2:qnl
Ib:      -5.76e-07    1.34e-12   -9.81e-06   -9.81e-06    8.23e-07
Ic:      -2.30e-05   -1.42e-12   -3.93e-04   -4.16e-04    6.83e-05
Vbe:     -7.18e-01   -8.35e-02   -7.32e-01   -7.32e-01    7.46e-01
Vbc:      0.00e+00    1.42e+00    0.00e+00    3.05e+00   -3.74e+00
Vce:     -7.18e-01   -1.50e+00   -7.32e-01   -3.78e+00    4.49e+00
BetaDC:   4.00e+01   -1.06e+00    4.00e+01    4.24e+01    8.30e+01
Gm:       8.90e-04    2.01e-14    1.52e-02    1.61e-02    2.64e-03
Rpi:      4.49e+04    1.00e+12    2.64e+03    2.64e+03    3.14e+04
Rx:       1.00e+02    1.00e+02    1.00e+01    1.00e+01    5.00e+02
Ro:       2.17e+06    9.90e+16    1.27e+05    1.27e+05    1.52e+06
Cbe:      1.03e-12    3.12e-13    1.41e-11    1.46e-11    1.46e-12
Cbc:      2.00e-13    1.41e-13    2.00e-12    1.17e-12    1.11e-13
Cjs:      0.00e+00    0.00e+00    0.00e+00    0.00e+00    3.00e-13
BetaAC:   4.00e+01    2.01e-02    4.00e+01    4.24e+01    8.30e+01
Cbx:      0.00e+00    0.00e+00    0.00e+00    0.00e+00    0.00e+00
Ft:       1.16e+08    3.52e-01    1.50e+08    1.62e+08    2.68e+08

Name:     q:u2:5      q:u2:7      q:u2:11     q:u2:13     q:u2:17
Model:    u2:qnl      u2:qnl      u2:qnl      u2:qnl      u2:qnl
Ib:       1.32e-06    1.37e-07   -1.50e-12    1.55e-06    2.89e-07
Ic:       1.06e-04    1.10e-05    9.72e-12    1.28e-04    2.33e-05
Vbe:      7.58e-01    6.99e-01    1.67e-08    7.63e-01    7.19e-01
Vbc:      1.34e-02   -6.19e-01   -1.50e+00   -3.81e+00   -7.74e-01
Vce:      7.45e-01    1.32e+00    1.50e+00    4.57e+00    1.49e+00
BetaDC:   8.00e+01    8.05e+01   -6.47e+00    8.30e+01    8.06e+01
Gm:       4.08e-03    4.26e-04    7.85e-16    4.97e-03    9.01e-04
Rpi:      1.96e+04    1.89e+05    1.00e+12    1.67e+04    8.94e+04
Rx:       5.00e+02    5.00e+02    5.00e+02    5.00e+02    5.00e+02
Ro:       9.48e+05    9.13e+06    5.00e+18    8.08e+05    4.32e+06
Cbe:      1.90e-12    7.74e-13    4.00e-13    2.16e-12    9.25e-13
Cbc:      2.01e-13    1.64e-13    1.39e-13    1.10e-13    1.58e-13
Cjs:      3.00e-13    3.00e-13    3.00e-13    3.00e-13    3.00e-13
BetaAC:   8.00e+01    8.05e+01    7.85e-04    8.30e+01    8.06e+01
Cbx:      0.00e+00    0.00e+00    0.00e+00    0.00e+00    0.00e+00
Ft:       3.09e+08    7.23e+07    2.95e-01    3.47e+08    1.32e+08

Name:     q:u2:19     q:u2:21     q:u2:23    q:u2:24a    q:u2:24b
Model:    u2:qnl      u2:qnl      u2:qnl      u2:qnl      u2:qnl
Ib:       3.00e-07    1.55e-07    5.00e-06    3.61e-07    4.32e-07
Ic:       2.42e-05    1.25e-05    4.12e-04    2.89e-05    3.46e-05
Vbe:      6.60e-01    7.02e-01    7.33e-01    7.24e-01    7.29e-01
Vbc:     -7.85e-01   -7.17e-01   -3.05e+00    2.55e-02    2.55e-02
Vce:      1.44e+00    1.42e+00    3.78e+00    6.99e-01    7.04e-01
BetaDC:   8.06e+01    8.06e+01    8.24e+01    8.00e+01    8.00e+01
Gm:       9.35e-04    4.82e-04    1.59e-02    1.12e-03    1.34e-03
Rpi:      8.62e+04    1.67e+05    5.17e+03    7.16e+04    5.98e+04
Rx:       5.00e+01    5.00e+02    5.00e+01    5.00e+02    5.00e+02
Ro:       4.17e+06    8.08e+06    2.50e+05    3.46e+06    2.89e+06
Cbe:      6.57e-12    7.92e-13    1.14e-11    9.93e-13    1.06e-12
Cbc:      1.58e-12    1.60e-13    1.17e-12    2.02e-13    2.02e-13
Cjs:      3.00e-12    3.00e-13    3.00e-12    3.00e-13    3.00e-13
BetaAC:   8.06e+01    8.06e+01    8.24e+01    8.00e+01    8.00e+01
Cbx:      0.00e+00    0.00e+00    0.00e+00    0.00e+00    0.00e+00
Ft:       1.83e+07    8.05e+07    2.02e+08    1.49e+08    1.68e+08

Name:     q:u2:25     q:u2:26       q1
Model:    u2:qnl      u2:qnl      2n3904
Ib:       4.90e-05    6.41e-05    4.74e-07
Ic:       4.07e-03    5.36e-03    1.42e-04
Vbe:      7.69e-01    7.15e-01    6.05e-01
Vbc:     -3.80e+00   -4.57e+00   -4.73e-04
Vce:      4.57e+00    5.28e+00    6.05e-01
BetaDC:   8.30e+01    8.37e+01    3.00e+02
Gm:       1.57e-01    2.07e-01    5.49e-03
Rpi:      5.27e+02    4.04e+02    5.46e+04
Rx:       2.00e+01    2.00e+00    2.00e+01
Ro:       2.55e+04    1.95e+04    7.04e+05
Cbe:      6.42e-11    2.26e-10    1.40e-11
Cbc:      2.76e-12    2.62e-11    4.00e-12
Cjs:      7.50e-12    7.50e-11    0.00e+00
BetaAC:   8.30e+01    8.36e+01    3.00e+02
Cbx:      0.00e+00    0.00e+00    0.00e+00
Ft:       3.74e+08    1.31e+08    4.85e+07

                        --- JFET Transistors ---
Name:    j:u2:1
Model:    u2:jn
Id:      4.40e-05
Vgs:    -5.16e+00
Vds:     1.24e-01
Gm:      2.47e-05
Gds:     3.44e-04
Cgs:     0.00e+00
Cgd:     0.00e+00









































































































































































































































































































































































































































































































































































































































































































































































































































































































































tnom = 27
temp = 27
method = modified trap
Total elapsed time: 18.125 seconds.

