LTspice 24.0.9 for Windows
Circuit: * C:\ONEDRIVE\OneDrive - Università di Napoli Federico II\FILE UNI\LTspice_circuiti\DCLoad2\test buffer\Draft2.asc
Start Time: Tue Aug 12 01:06:45 2025
solver = Normal
Maximum thread count: 12



Direct Newton iteration for .op point succeeded.
Semiconductor Device Operating Points:
                        --- Bipolar Transistors ---
Name:       q1
Model:    2n2222
Ib:       2.44e-03
Ic:       1.52e-01
Vbe:      8.52e-01
Vbc:      6.68e-01
Vce:      1.84e-01
BetaDC:   6.23e+01
Gm:       4.41e+00
Rpi:      2.17e+01
Rx:       1.00e+01
Ro:       1.04e+01
Cbe:      2.64e-09
Cbc:      1.45e-08
Cjs:      0.00e+00
BetaAC:   9.56e+01
Cbx:      0.00e+00
Ft:       4.10e+07

                        --- VDMOSFET Transistors ---
Name:          m1
Model:       2n7002
Id:          1.39e-01
Vgs:         3.30e+00
Vds:         6.20e-01
Vth:         1.60e+00
Gm:          1.09e-01
Gds:         2.02e-01
Cgs:         5.00e-11
Cgd:         7.98e-11
Cbody:       3.93e-11





























tnom = 27
temp = 27
method = modified trap
Total elapsed time: 0.241 seconds.

